
T0CB8 000:322 SEGGER J-Link V5.02f Log File (0001ms, 0267ms total)
T0CB8 000:322 DLL Compiled: Oct  2 2015 20:51:34 (0001ms, 0267ms total)
T0CB8 000:322 Logging started @ 2016-03-22 16:05 (0001ms, 0267ms total)
T0CB8 000:323 JLINK_SetWarnOutHandler(...) (0000ms, 0267ms total)
T0CB8 000:323 JLINK_OpenEx(...)
Firmware: J-Link ARM V8 compiled Nov 28 2014 13:44:46
Hardware: V8.00
S/N: 17935099
Feature(s): RDI,FlashDL,FlashBP,JFlash  returns O.K. (0265ms, 0532ms total)
T0CB8 000:588 JLINK_SetErrorOutHandler(...) (0000ms, 0532ms total)
T0CB8 000:588 JLINK_ExecCommand("ProjectFile = "D:\GitHub\WqFourAxis¦ÌCOS3\JLinkSettings.ini"", ...)  returns 0x00 (0001ms, 0533ms total)
T0CB8 000:589 JLINK_ExecCommand("Device = STM32F103T8", ...)Device "STM32F103T8" selected.  returns 0x00 (0001ms, 0534ms total)
T0CB8 000:590 JLINK_ExecCommand("DisableConnectionTimeout", ...)  returns 0x01 (0000ms, 0534ms total)
T0CB8 000:590 JLINK_GetHardwareVersion()  returns 0x13880 (0000ms, 0534ms total)
T0CB8 000:590 JLINK_GetDLLVersion()  returns 50206 (0000ms, 0534ms total)
T0CB8 000:591 JLINK_GetFirmwareString(...) (0000ms, 0535ms total)
T0CB8 000:593 JLINK_GetDLLVersion()  returns 50206 (0000ms, 0535ms total)
T0CB8 000:593 JLINK_GetCompileDateTime() (0000ms, 0535ms total)
T0CB8 000:593 JLINK_GetFirmwareString(...) (0000ms, 0535ms total)
T0CB8 000:594 JLINK_GetHardwareVersion()  returns 0x13880 (0000ms, 0535ms total)
T0CB8 000:595 JLINK_TIF_Select(JLINKARM_TIF_SWD)  returns 0x00 (0001ms, 0536ms total)
T0CB8 000:596 JLINK_SetSpeed(5000) (0000ms, 0536ms total)
T0CB8 000:596 JLINK_GetId() >0x108 TIF>Found SWD-DP with ID 0x1BA01477 >0x0D TIF> >0x28 TIF> >0x0D TIF> >0x28 TIF> >0x0D TIF> >0x21 TIF> >0x0D TIF> >0x28 TIF> >0x0D TIF> >0x28 TIF> >0x0D TIF> >0x28 TIF> >0x0D TIF> >0x21 TIF> >0x0D TIF> >0x21 TIF> >0x0D TIF> >0x28 TIF> >0x0D TIF> >0x21 TIF> >0x0D TIF> >0x21 TIF> >0x0D TIF> >0x28 TIF> >0x0D TIF> >0x21 TIF> >0x0D TIF> >0x21 TIF> >0x0D TIF> >0x28 TIF> >0x0D TIF> >0x21 TIF> >0x0D TIF> >0x21 TIF> >0x108 TIF>Found SWD-DP with ID 0x1BA01477 >0x0D TIF> >0x21 TIF>
 >0x0D TIF> >0x28 TIF> >0x0D TIF> >0x28 TIF> >0x0D TIF> >0x21 TIF> >0x0D TIF> >0x28 TIF> >0x0D TIF> >0x21 TIF> >0x0D TIF> >0x21 TIF> >0x0D TIF> >0x21 TIF> >0x0D TIF> >0x21 TIF> >0x0D TIF> >0x28 TIF> >0x0D TIF> >0x28 TIF> >0x0D TIF> >0x21 TIF> >0x0D TIF> >0x28 TIF> >0x0D TIF> >0x28 TIF> >0x0D TIF> >0x28 TIF> >0x0D TIF> >0x21 TIF> >0x0D TIF> >0x21 TIF> >0x0D TIF> >0x28 TIF> >0x0D TIF> >0x21 TIF> >0x0D TIF> >0x21 TIF>Found Cortex-M3 r1p1, Little endian. -- CPU_ReadMem(4 bytes @ 0xE000EDF0)
 -- CPU_ReadMem(4 bytes @ 0xE0002000)FPUnit: 6 code (BP) slots and 2 literal slots -- CPU_ReadMem(4 bytes @ 0xE000EDFC) -- CPU_ReadMem(4 bytes @ 0xE0001000) -- CPU_WriteMem(4 bytes @ 0xE0001000) -- CPU_ReadMem(4 bytes @ 0xE000ED88) -- CPU_WriteMem(4 bytes @ 0xE000ED88) -- CPU_ReadMem(4 bytes @ 0xE000ED88) -- CPU_WriteMem(4 bytes @ 0xE000ED88)CoreSight components:ROMTbl 0 @ E00FF000 -- CPU_ReadMem(16 bytes @ 0xE00FF000) -- CPU_ReadMem(16 bytes @ 0xE000EFF0) -- CPU_ReadMem(16 bytes @ 0xE000EFE0)
ROMTbl 0 [0]: FFF0F000, CID: B105E00D, PID: 001BB000 SCS -- CPU_ReadMem(16 bytes @ 0xE0001FF0) -- CPU_ReadMem(16 bytes @ 0xE0001FE0)ROMTbl 0 [1]: FFF02000, CID: B105E00D, PID: 001BB002 DWT -- CPU_ReadMem(16 bytes @ 0xE0002FF0) -- CPU_ReadMem(16 bytes @ 0xE0002FE0)ROMTbl 0 [2]: FFF03000, CID: B105E00D, PID: 000BB003 FPB -- CPU_ReadMem(16 bytes @ 0xE0000FF0) -- CPU_ReadMem(16 bytes @ 0xE0000FE0)ROMTbl 0 [3]: FFF01000, CID: B105E00D, PID: 001BB001 ITM -- CPU_ReadMem(16 bytes @ 0xE00FF010)
 -- CPU_ReadMem(16 bytes @ 0xE0040FF0) -- CPU_ReadMem(16 bytes @ 0xE0040FE0)ROMTbl 0 [4]: FFF41000, CID: B105900D, PID: 001BB923 TPIU-Lite >0x0D TIF> >0x21 TIF>  returns 0x1BA01477 (0045ms, 0581ms total)
T0CB8 000:641 JLINK_GetDLLVersion()  returns 50206 (0000ms, 0581ms total)
T0CB8 000:641 JLINK_CORE_GetFound()  returns 0x30000FF (0001ms, 0582ms total)
T0CB8 000:642 JLINK_GetDebugInfo(0x100) -- Value=0xE00FF003  returns 0x00 (0000ms, 0582ms total)
T0CB8 000:642 JLINK_GetDebugInfo(0x100) -- Value=0xE00FF003  returns 0x00 (0000ms, 0582ms total)
T0CB8 000:642 JLINK_GetDebugInfo(0x101) -- Value=0x00000000  returns 0x00 (0000ms, 0582ms total)
T0CB8 000:642 JLINK_ReadMem (0xE0041FF0, 0x0010 Bytes, ...) -- CPU is running -- CPU_ReadMem(16 bytes @ 0xE0041FF0) - Data: 00 00 00 00 00 00 00 00 00 00 00 00 00 00 00 00  returns 0x00 (0001ms, 0583ms total)
T0CB8 000:643 JLINK_GetDebugInfo(0x102) -- Value=0x00000000  returns 0x00 (0000ms, 0583ms total)
T0CB8 000:643 JLINK_GetDebugInfo(0x103) -- Value=0xE0040000  returns 0x00 (0000ms, 0583ms total)
T0CB8 000:643 JLINK_GetDebugInfo(0x104) -- Value=0xE0000000  returns 0x00 (0000ms, 0583ms total)
T0CB8 000:643 JLINK_GetDebugInfo(0x105) -- Value=0xE0001000  returns 0x00 (0000ms, 0583ms total)
T0CB8 000:643 JLINK_GetDebugInfo(0x106) -- Value=0xE0002000  returns 0x00 (0000ms, 0583ms total)
T0CB8 000:643 JLINK_GetDebugInfo(0x107) -- Value=0xE000E000  returns 0x00 (0000ms, 0583ms total)
T0CB8 000:643 JLINK_GetDebugInfo(0x10C) -- Value=0xE000EDF0  returns 0x00 (0000ms, 0583ms total)
T0CB8 000:643 JLINK_ReadMemU32(0xE000ED00, 0x0001 Items, ...) -- CPU is running -- CPU_ReadMem(4 bytes @ 0xE000ED00) - Data: 31 C2 1F 41  returns 0x01 (0001ms, 0584ms total)
T0CB8 000:644 JLINK_SetResetType(JLINKARM_RESET_TYPE_NORMAL)  returns JLINKARM_RESET_TYPE_NORMAL (0000ms, 0584ms total)
T0CB8 000:644 JLINK_Reset() -- CPU is running -- CPU_WriteMem(4 bytes @ 0xE000EDF0) -- CPU is running -- CPU_WriteMem(4 bytes @ 0xE000EDFC) >0x35 TIF> -- CPU is running -- CPU_WriteMem(4 bytes @ 0xE000ED0C) -- CPU is running -- CPU_ReadMem(4 bytes @ 0xE000EDF0) -- CPU is running -- CPU_ReadMem(4 bytes @ 0xE000EDF0) -- CPU is running -- CPU_ReadMem(4 bytes @ 0xE000EDF0) -- CPU is running -- CPU_ReadMem(4 bytes @ 0xE000EDF0) -- CPU is running -- CPU_ReadMem(4 bytes @ 0xE000EDF0) -- CPU is running
 -- CPU_ReadMem(4 bytes @ 0xE000EDF0) -- CPU is running -- CPU_ReadMem(4 bytes @ 0xE000EDF0) -- CPU is running -- CPU_ReadMem(4 bytes @ 0xE000EDF0) -- CPU is running -- CPU_ReadMem(4 bytes @ 0xE000EDF0) -- CPU is running -- CPU_ReadMem(4 bytes @ 0xE000EDF0) -- CPU is running -- CPU_ReadMem(4 bytes @ 0xE000EDF0) -- CPU is running -- CPU_ReadMem(4 bytes @ 0xE000EDF0) -- CPU is running -- CPU_ReadMem(4 bytes @ 0xE000EDF0) -- CPU is running -- CPU_WriteMem(4 bytes @ 0xE000EDF0) -- CPU is running
 -- CPU_WriteMem(4 bytes @ 0xE000EDFC) -- CPU is running -- CPU_ReadMem(4 bytes @ 0xE000EDF0) -- CPU_WriteMem(4 bytes @ 0xE0002000) -- CPU_ReadMem(4 bytes @ 0xE000EDFC) -- CPU_ReadMem(4 bytes @ 0xE0001000) (0022ms, 0606ms total)
T0CB8 000:666 JLINK_ReadReg(R15 (PC))  returns 0x08003114 (0000ms, 0606ms total)
T0CB8 000:666 JLINK_ReadReg(XPSR)  returns 0x01000000 (0000ms, 0606ms total)
T0CB8 000:666 JLINK_Halt()  returns 0x00 (0000ms, 0606ms total)
T0CB8 000:666 JLINK_IsHalted()  returns TRUE (0000ms, 0606ms total)
T0CB8 000:666 JLINK_ReadMemU32(0xE000EDF0, 0x0001 Items, ...) -- CPU_ReadMem(4 bytes @ 0xE000EDF0) - Data: 03 00 03 00  returns 0x01 (0001ms, 0607ms total)
T0CB8 000:667 JLINK_WriteU32(0xE000EDF0, 0xA05F0003) -- CPU_WriteMem(4 bytes @ 0xE000EDF0)  returns 0x00 (0000ms, 0607ms total)
T0CB8 000:667 JLINK_WriteU32(0xE000EDFC, 0x01000000) -- CPU_WriteMem(4 bytes @ 0xE000EDFC)  returns 0x00 (0001ms, 0608ms total)
T0CB8 000:669 JLINK_GetHWStatus(...)  returns 0x00 (0000ms, 0608ms total)
T0CB8 000:669 JLINK_GetNumBPUnits(Type = 0xFFFFFF00)  returns 0x06 (0000ms, 0608ms total)
T0CB8 000:669 JLINK_GetNumBPUnits(Type = 0xF0)  returns 0x2000 (0000ms, 0608ms total)
T0CB8 000:670 JLINK_GetNumWPUnits()  returns 0x04 (0000ms, 0608ms total)
T0CB8 000:670 JLINK_GetSpeed()  returns 0xFA0 (0000ms, 0608ms total)
T0CB8 000:671 JLINK_ReadMemU32(0xE000E004, 0x0001 Items, ...) -- CPU_ReadMem(4 bytes @ 0xE000E004) - Data: 01 00 00 00  returns 0x01 (0000ms, 0608ms total)
T0CB8 000:671 JLINK_ReadMemU32(0xE000E004, 0x0001 Items, ...) -- CPU_ReadMem(4 bytes @ 0xE000E004) - Data: 01 00 00 00  returns 0x01 (0001ms, 0609ms total)
T0CB8 000:672 JLINK_WriteMem(0xE0001000, 0x001C Bytes, ...) - Data: 01 00 00 00 00 00 00 00 00 00 00 00 00 00 00 00 ... -- CPU_WriteMem(28 bytes @ 0xE0001000)  returns 0x1C (0002ms, 0611ms total)
T0CB8 000:674 JLINK_ReadMem (0xE0001000, 0x001C Bytes, ...) -- CPU_ReadMem(28 bytes @ 0xE0001000) - Data: 01 00 00 40 00 00 00 00 00 00 00 00 00 00 00 00 ...  returns 0x00 (0000ms, 0611ms total)
T0CB8 000:674 JLINK_ReadReg(R15 (PC))  returns 0x08003114 (0001ms, 0612ms total)
T0CB8 000:675 JLINK_ReadReg(XPSR)  returns 0x01000000 (0000ms, 0612ms total)
T0CB8 000:765 JLINK_SetResetType(JLINKARM_RESET_TYPE_NORMAL)  returns JLINKARM_RESET_TYPE_NORMAL (0000ms, 0612ms total)
T0CB8 000:765 JLINK_Reset() -- CPU_WriteMem(4 bytes @ 0xE000EDF0) -- CPU_WriteMem(4 bytes @ 0xE000EDFC) >0x35 TIF> -- CPU_WriteMem(4 bytes @ 0xE000ED0C) -- CPU_ReadMem(4 bytes @ 0xE000EDF0) -- CPU_ReadMem(4 bytes @ 0xE000EDF0) -- CPU_ReadMem(4 bytes @ 0xE000EDF0) -- CPU_ReadMem(4 bytes @ 0xE000EDF0) -- CPU_ReadMem(4 bytes @ 0xE000EDF0) -- CPU_ReadMem(4 bytes @ 0xE000EDF0) -- CPU_ReadMem(4 bytes @ 0xE000EDF0) -- CPU_ReadMem(4 bytes @ 0xE000EDF0) -- CPU_ReadMem(4 bytes @ 0xE000EDF0)
 -- CPU_ReadMem(4 bytes @ 0xE000EDF0) -- CPU_ReadMem(4 bytes @ 0xE000EDF0) -- CPU_ReadMem(4 bytes @ 0xE000EDF0) -- CPU_ReadMem(4 bytes @ 0xE000EDF0) -- CPU_ReadMem(4 bytes @ 0xE000EDF0) -- CPU_WriteMem(4 bytes @ 0xE000EDF0) -- CPU_WriteMem(4 bytes @ 0xE000EDFC) -- CPU is running -- CPU_ReadMem(4 bytes @ 0xE000EDF0) -- CPU_WriteMem(4 bytes @ 0xE0002000) -- CPU_ReadMem(4 bytes @ 0xE000EDFC) -- CPU_ReadMem(4 bytes @ 0xE0001000) (0023ms, 0635ms total)
T0CB8 000:788 JLINK_ReadReg(R15 (PC))  returns 0x08003114 (0000ms, 0635ms total)
T0CB8 000:788 JLINK_ReadReg(XPSR)  returns 0x01000000 (0000ms, 0635ms total)
T0CB8 001:172 JLINK_ReadMem (0x08003114, 0x003C Bytes, ...) -- CPU_ReadMem(128 bytes @ 0x08003100) -- Updating C cache (128 bytes @ 0x08003100) -- Read from C cache (60 bytes @ 0x08003114) - Data: 09 48 80 47 09 48 00 47 FE E7 FE E7 FE E7 FE E7 ...  returns 0x00 (0002ms, 0637ms total)
T0CB8 003:355 JLINK_ReadMem (0x20000080, 0x000E Bytes, ...) -- CPU_ReadMem(64 bytes @ 0x20000080) -- Updating C cache (64 bytes @ 0x20000080) -- Read from C cache (14 bytes @ 0x20000080) - Data: 00 14 00 28 10 50 F2 81 FF DD FF FF FF FE  returns 0x00 (0002ms, 0639ms total)
T3658 003:452 JLINK_SetBPEx(Addr = 0x080001A0, Type = 0xFFFFFFF2)  returns 0x00000001 (0001ms, 0640ms total)
T3658 003:453 JLINK_SetBPEx(Addr = 0x08000AA2, Type = 0xFFFFFFF2)  returns 0x00000002 (0000ms, 0640ms total)
T3658 003:453 JLINK_SetBPEx(Addr = 0x08000C5E, Type = 0xFFFFFFF2)  returns 0x00000003 (0000ms, 0640ms total)
T3658 003:453 JLINK_Go() -- CPU_WriteMem(4 bytes @ 0xE0002000) -- CPU_WriteMem(4 bytes @ 0xE0002000) -- CPU_WriteMem(4 bytes @ 0xE0002000) -- CPU_ReadMem(4 bytes @ 0xE0001000) -- CPU_WriteMem(4 bytes @ 0xE0002008) -- CPU_WriteMem(4 bytes @ 0xE000200C) -- CPU_WriteMem(4 bytes @ 0xE0002010) -- CPU_WriteMem(4 bytes @ 0xE0002014) -- CPU_WriteMem(4 bytes @ 0xE0002018) -- CPU_WriteMem(4 bytes @ 0xE000201C) -- CPU_WriteMem(4 bytes @ 0xE0001004) (0005ms, 0645ms total)
T3658 003:559 JLINK_IsHalted()  returns TRUE (0002ms, 0647ms total)
T3658 003:561 JLINK_Halt()  returns 0x00 (0000ms, 0645ms total)
T3658 003:561 JLINK_IsHalted()  returns TRUE (0000ms, 0645ms total)
T3658 003:561 JLINK_IsHalted()  returns TRUE (0000ms, 0645ms total)
T3658 003:562 JLINK_IsHalted()  returns TRUE (0000ms, 0645ms total)
T3658 003:562 JLINK_ReadReg(R15 (PC))  returns 0x080001A0 (0000ms, 0645ms total)
T3658 003:562 JLINK_ReadReg(XPSR)  returns 0x61000000 (0000ms, 0645ms total)
T3658 003:562 JLINK_ClrBPEx(BPHandle = 0x00000001)  returns 0x00 (0000ms, 0645ms total)
T3658 003:562 JLINK_ClrBPEx(BPHandle = 0x00000002)  returns 0x00 (0000ms, 0645ms total)
T3658 003:562 JLINK_ClrBPEx(BPHandle = 0x00000003)  returns 0x00 (0000ms, 0645ms total)
T3658 003:562 JLINK_ReadMemU32(0xE000ED30, 0x0001 Items, ...) -- CPU_ReadMem(4 bytes @ 0xE000ED30) - Data: 03 00 00 00  returns 0x01 (0001ms, 0646ms total)
T3658 003:563 JLINK_ReadMemU32(0xE0001028, 0x0001 Items, ...) -- CPU_ReadMem(4 bytes @ 0xE0001028) - Data: 00 00 00 00  returns 0x01 (0000ms, 0646ms total)
T3658 003:563 JLINK_ReadMemU32(0xE0001038, 0x0001 Items, ...) -- CPU_ReadMem(4 bytes @ 0xE0001038) - Data: 00 02 00 00  returns 0x01 (0001ms, 0647ms total)
T3658 003:564 JLINK_ReadMemU32(0xE0001048, 0x0001 Items, ...) -- CPU_ReadMem(4 bytes @ 0xE0001048) - Data: 00 00 00 00  returns 0x01 (0000ms, 0647ms total)
T3658 003:564 JLINK_ReadMemU32(0xE0001058, 0x0001 Items, ...) -- CPU_ReadMem(4 bytes @ 0xE0001058) - Data: 00 00 00 00  returns 0x01 (0001ms, 0648ms total)
T3658 003:565 JLINK_ReadReg(R0)  returns 0x200001D0 (0000ms, 0648ms total)
T3658 003:565 JLINK_ReadReg(R1)  returns 0x200003D0 (0000ms, 0648ms total)
T3658 003:565 JLINK_ReadReg(R2)  returns 0x200003D0 (0000ms, 0648ms total)
T3658 003:565 JLINK_ReadReg(R3)  returns 0x200003D0 (0000ms, 0648ms total)
T3658 003:565 JLINK_ReadReg(R4)  returns 0x00000000 (0000ms, 0648ms total)
T3658 003:565 JLINK_ReadReg(R5)  returns 0x20000170 (0000ms, 0648ms total)
T3658 003:565 JLINK_ReadReg(R6)  returns 0x00000000 (0001ms, 0649ms total)
T3658 003:566 JLINK_ReadReg(R7)  returns 0x00000000 (0000ms, 0649ms total)
T3658 003:566 JLINK_ReadReg(R8)  returns 0x00000000 (0000ms, 0649ms total)
T3658 003:566 JLINK_ReadReg(R9)  returns 0x20000160 (0000ms, 0649ms total)
T3658 003:566 JLINK_ReadReg(R10)  returns 0x08004D84 (0000ms, 0649ms total)
T3658 003:566 JLINK_ReadReg(R11)  returns 0x00000000 (0000ms, 0649ms total)
T3658 003:566 JLINK_ReadReg(R12)  returns 0x200001B0 (0000ms, 0649ms total)
T3658 003:566 JLINK_ReadReg(R13 (SP))  returns 0x200007D0 (0000ms, 0649ms total)
T3658 003:566 JLINK_ReadReg(R14)  returns 0x08000191 (0000ms, 0649ms total)
T3658 003:566 JLINK_ReadReg(R15 (PC))  returns 0x080001A0 (0000ms, 0649ms total)
T3658 003:566 JLINK_ReadReg(XPSR)  returns 0x61000000 (0000ms, 0649ms total)
T3658 003:566 JLINK_ReadReg(MSP)  returns 0x200007D0 (0000ms, 0649ms total)
T3658 003:566 JLINK_ReadReg(PSP)  returns 0x20000800 (0000ms, 0649ms total)
T3658 003:566 JLINK_ReadReg(CFBP)  returns 0x00000000 (0000ms, 0649ms total)
T0CB8 003:567 JLINK_ReadMem (0x00000000, 0x0004 Bytes, ...) -- CPU_ReadMem(4 bytes @ 0x00000004) -- CPU_ReadMem(64 bytes @ 0x08000000) -- Updating C cache (64 bytes @ 0x08000000) -- Read from C cache (4 bytes @ 0x08000000) - Data: D0 07 00 20  returns 0x00 (0002ms, 0651ms total)
T0CB8 003:570 JLINK_ReadMemU32(0xE0001004, 0x0001 Items, ...) -- CPU_ReadMem(4 bytes @ 0xE0001004) - Data: E5 0D 00 00  returns 0x01 (0001ms, 0652ms total)
T0CB8 003:572 JLINK_ReadMem (0x20000080, 0x000E Bytes, ...) -- CPU_ReadMem(64 bytes @ 0x20000080) -- Updating C cache (64 bytes @ 0x20000080) -- Read from C cache (14 bytes @ 0x20000080) - Data: 00 00 00 00 00 00 00 00 00 00 00 00 00 00  returns 0x00 (0001ms, 0653ms total)
T0CB8 003:575 JLINK_ReadMem (0x080001A0, 0x003C Bytes, ...) -- CPU_ReadMem(128 bytes @ 0x08000180) -- Updating C cache (128 bytes @ 0x08000180) -- Read from C cache (60 bytes @ 0x080001A0) - Data: 00 F0 86 FF 4F F4 A0 60 01 F0 8C F8 4F F4 E1 30 ...  returns 0x00 (0002ms, 0655ms total)
T0CB8 007:281 JLINK_ReadMem (0x08000AE8, 0x003C Bytes, ...) -- CPU_ReadMem(128 bytes @ 0x08000AC0) -- Updating C cache (128 bytes @ 0x08000AC0) -- Read from C cache (60 bytes @ 0x08000AE8) - Data: BD E8 F0 81 38 46 00 F0 7F FA 00 F0 10 FA 00 F0 ...  returns 0x00 (0002ms, 0657ms total)
T0CB8 010:709 JLINK_ReadMem (0x2000004E, 0x0002 Bytes, ...) -- CPU_ReadMem(64 bytes @ 0x20000040) -- Updating C cache (64 bytes @ 0x20000040) -- Read from C cache (2 bytes @ 0x2000004E) - Data: 00 00  returns 0x00 (0001ms, 0658ms total)
T0CB8 010:710 JLINK_ReadMem (0x20000050, 0x0002 Bytes, ...) -- Read from C cache (2 bytes @ 0x20000050) - Data: 00 00  returns 0x00 (0000ms, 0658ms total)
T0CB8 010:710 JLINK_ReadMem (0x20000052, 0x0002 Bytes, ...) -- Read from C cache (2 bytes @ 0x20000052) - Data: 00 00  returns 0x00 (0000ms, 0658ms total)
T3658 012:068 JLINK_SetBPEx(Addr = 0x08000AA2, Type = 0xFFFFFFF2)  returns 0x00000004 (0000ms, 0658ms total)
T3658 012:068 JLINK_SetBPEx(Addr = 0x08000C5E, Type = 0xFFFFFFF2)  returns 0x00000005 (0000ms, 0658ms total)
T3658 012:068 JLINK_Go() -- CPU_WriteMem(4 bytes @ 0xE0002000) -- CPU_WriteMem(4 bytes @ 0xE0002000) -- CPU_ReadMem(4 bytes @ 0xE0001000) -- CPU_WriteMem(4 bytes @ 0xE0002008) -- CPU_WriteMem(4 bytes @ 0xE000200C) -- CPU_WriteMem(4 bytes @ 0xE0002010) (0003ms, 0661ms total)
T3658 012:172 JLINK_IsHalted()  returns FALSE (0000ms, 0661ms total)
T3658 012:274 JLINK_IsHalted()  returns TRUE (0002ms, 0663ms total)
T3658 012:276 JLINK_Halt()  returns 0x00 (0000ms, 0661ms total)
T3658 012:276 JLINK_IsHalted()  returns TRUE (0001ms, 0662ms total)
T3658 012:277 JLINK_IsHalted()  returns TRUE (0000ms, 0661ms total)
T3658 012:277 JLINK_IsHalted()  returns TRUE (0000ms, 0661ms total)
T3658 012:277 JLINK_ReadReg(R15 (PC))  returns 0x08000C5E (0000ms, 0661ms total)
T3658 012:277 JLINK_ReadReg(XPSR)  returns 0x61000000 (0000ms, 0661ms total)
T3658 012:277 JLINK_ClrBPEx(BPHandle = 0x00000004)  returns 0x00 (0000ms, 0661ms total)
T3658 012:277 JLINK_ClrBPEx(BPHandle = 0x00000005)  returns 0x00 (0000ms, 0661ms total)
T3658 012:277 JLINK_ReadMemU32(0xE000ED30, 0x0001 Items, ...) -- CPU_ReadMem(4 bytes @ 0xE000ED30) - Data: 03 00 00 00  returns 0x01 (0000ms, 0661ms total)
T3658 012:277 JLINK_ReadMemU32(0xE0001028, 0x0001 Items, ...) -- CPU_ReadMem(4 bytes @ 0xE0001028) - Data: 00 00 00 00  returns 0x01 (0001ms, 0662ms total)
T3658 012:278 JLINK_ReadMemU32(0xE0001038, 0x0001 Items, ...) -- CPU_ReadMem(4 bytes @ 0xE0001038) - Data: 00 02 00 00  returns 0x01 (0000ms, 0662ms total)
T3658 012:278 JLINK_ReadMemU32(0xE0001048, 0x0001 Items, ...) -- CPU_ReadMem(4 bytes @ 0xE0001048) - Data: 00 00 00 00  returns 0x01 (0001ms, 0663ms total)
T3658 012:279 JLINK_ReadMemU32(0xE0001058, 0x0001 Items, ...) -- CPU_ReadMem(4 bytes @ 0xE0001058) - Data: 00 00 00 00  returns 0x01 (0001ms, 0664ms total)
T3658 012:280 JLINK_ReadReg(R0)  returns 0x00000000 (0000ms, 0664ms total)
T3658 012:280 JLINK_ReadReg(R1)  returns 0x20000048 (0000ms, 0664ms total)
T3658 012:280 JLINK_ReadReg(R2)  returns 0x00000000 (0000ms, 0664ms total)
T3658 012:280 JLINK_ReadReg(R3)  returns 0xE000E000 (0000ms, 0664ms total)
T3658 012:280 JLINK_ReadReg(R4)  returns 0x00000000 (0000ms, 0664ms total)
T3658 012:280 JLINK_ReadReg(R5)  returns 0x20000170 (0000ms, 0664ms total)
T3658 012:280 JLINK_ReadReg(R6)  returns 0x00000000 (0000ms, 0664ms total)
T3658 012:280 JLINK_ReadReg(R7)  returns 0x00000000 (0000ms, 0664ms total)
T3658 012:280 JLINK_ReadReg(R8)  returns 0x00000000 (0000ms, 0664ms total)
T3658 012:280 JLINK_ReadReg(R9)  returns 0x20000160 (0000ms, 0664ms total)
T3658 012:280 JLINK_ReadReg(R10)  returns 0x08004D84 (0000ms, 0664ms total)
T3658 012:280 JLINK_ReadReg(R11)  returns 0x00000000 (0000ms, 0664ms total)
T3658 012:280 JLINK_ReadReg(R12)  returns 0x000000C0 (0001ms, 0665ms total)
T3658 012:281 JLINK_ReadReg(R13 (SP))  returns 0x200007C8 (0000ms, 0665ms total)
T3658 012:281 JLINK_ReadReg(R14)  returns 0x08000E75 (0000ms, 0665ms total)
T3658 012:281 JLINK_ReadReg(R15 (PC))  returns 0x08000C5E (0000ms, 0665ms total)
T3658 012:281 JLINK_ReadReg(XPSR)  returns 0x61000000 (0000ms, 0665ms total)
T3658 012:281 JLINK_ReadReg(MSP)  returns 0x200007C8 (0000ms, 0665ms total)
T3658 012:281 JLINK_ReadReg(PSP)  returns 0x20000800 (0000ms, 0665ms total)
T3658 012:281 JLINK_ReadReg(CFBP)  returns 0x00000000 (0000ms, 0665ms total)
T0CB8 012:281 JLINK_ReadMem (0x200007CC, 0x0004 Bytes, ...) -- CPU_ReadMem(64 bytes @ 0x200007C0) -- Updating C cache (64 bytes @ 0x200007C0) -- Read from C cache (4 bytes @ 0x200007CC) - Data: DD 01 00 08  returns 0x00 (0002ms, 0667ms total)
T0CB8 012:283 JLINK_ReadMem (0x200007C8, 0x0004 Bytes, ...) -- Read from C cache (4 bytes @ 0x200007C8) - Data: 00 00 00 00  returns 0x00 (0000ms, 0667ms total)
T0CB8 012:284 JLINK_ReadMem (0x00000000, 0x0004 Bytes, ...) -- CPU_ReadMem(4 bytes @ 0x00000004) -- CPU_ReadMem(64 bytes @ 0x08000000) -- Updating C cache (64 bytes @ 0x08000000) -- Read from C cache (4 bytes @ 0x08000000) - Data: D0 07 00 20  returns 0x00 (0001ms, 0668ms total)
T0CB8 012:285 JLINK_ReadMemU32(0xE0001004, 0x0001 Items, ...) -- CPU_ReadMem(4 bytes @ 0xE0001004) - Data: 20 20 72 00  returns 0x01 (0001ms, 0669ms total)
T0CB8 012:287 JLINK_ReadMem (0x20000080, 0x000E Bytes, ...) -- CPU_ReadMem(64 bytes @ 0x20000080) -- Updating C cache (64 bytes @ 0x20000080) -- Read from C cache (14 bytes @ 0x20000080) - Data: 00 00 00 00 00 00 00 00 00 00 00 00 00 00  returns 0x00 (0001ms, 0670ms total)
T0CB8 012:290 JLINK_ReadMem (0x08000C5E, 0x0002 Bytes, ...) -- CPU_ReadMem(64 bytes @ 0x08000C40) -- Updating C cache (64 bytes @ 0x08000C40) -- Read from C cache (2 bytes @ 0x08000C5E) - Data: 7A 48  returns 0x00 (0002ms, 0672ms total)
T0CB8 012:292 JLINK_ReadMem (0x08000C60, 0x003C Bytes, ...) -- CPU_ReadMem(64 bytes @ 0x08000C80) -- Updating C cache (64 bytes @ 0x08000C80) -- Read from C cache (60 bytes @ 0x08000C60) - Data: C0 78 79 49 89 78 40 EA 01 20 79 49 49 88 40 1A ...  returns 0x00 (0001ms, 0673ms total)
T3658 013:720 JLINK_Step() -- Read from C cache (2 bytes @ 0x08000C5E) -- CPU_ReadMem(64 bytes @ 0x08000E40) -- Updating C cache (64 bytes @ 0x08000E40) -- Read from C cache (4 bytes @ 0x08000E48) -- Simulated  returns 0x00 (0002ms, 0675ms total)
T3658 013:722 JLINK_ReadReg(R15 (PC))  returns 0x08000C60 (0000ms, 0675ms total)
T3658 013:722 JLINK_ReadReg(XPSR)  returns 0x61000000 (0000ms, 0675ms total)
T3658 013:722 JLINK_SetBPEx(Addr = 0x08000AA2, Type = 0xFFFFFFF2)  returns 0x00000006 (0000ms, 0675ms total)
T3658 013:722 JLINK_SetBPEx(Addr = 0x08000C5E, Type = 0xFFFFFFF2)  returns 0x00000007 (0000ms, 0675ms total)
T3658 013:722 JLINK_Go() -- CPU_WriteMem(4 bytes @ 0xE0002000) -- CPU_WriteMem(4 bytes @ 0xE0002000) -- CPU_ReadMem(4 bytes @ 0xE0001000) -- CPU_WriteMem(4 bytes @ 0xE0001004) (0003ms, 0678ms total)
T3658 013:826 JLINK_IsHalted()  returns FALSE (0000ms, 0678ms total)
T3658 013:927 JLINK_IsHalted()  returns FALSE (0001ms, 0679ms total)
T3658 014:028 JLINK_IsHalted()  returns FALSE (0000ms, 0678ms total)
T3658 014:129 JLINK_IsHalted()  returns FALSE (0000ms, 0678ms total)
T3658 014:230 JLINK_IsHalted()  returns TRUE (0002ms, 0680ms total)
T3658 014:232 JLINK_Halt()  returns 0x00 (0000ms, 0678ms total)
T3658 014:232 JLINK_IsHalted()  returns TRUE (0000ms, 0678ms total)
T3658 014:232 JLINK_IsHalted()  returns TRUE (0000ms, 0678ms total)
T3658 014:232 JLINK_IsHalted()  returns TRUE (0000ms, 0678ms total)
T3658 014:232 JLINK_ReadReg(R15 (PC))  returns 0x08000C5E (0001ms, 0679ms total)
T3658 014:233 JLINK_ReadReg(XPSR)  returns 0x21000000 (0000ms, 0679ms total)
T3658 014:233 JLINK_ClrBPEx(BPHandle = 0x00000006)  returns 0x00 (0000ms, 0679ms total)
T3658 014:233 JLINK_ClrBPEx(BPHandle = 0x00000007)  returns 0x00 (0000ms, 0679ms total)
T3658 014:233 JLINK_ReadMemU32(0xE000ED30, 0x0001 Items, ...) -- CPU_ReadMem(4 bytes @ 0xE000ED30) - Data: 03 00 00 00  returns 0x01 (0000ms, 0679ms total)
T3658 014:233 JLINK_ReadMemU32(0xE0001028, 0x0001 Items, ...) -- CPU_ReadMem(4 bytes @ 0xE0001028) - Data: 00 00 00 00  returns 0x01 (0001ms, 0680ms total)
T3658 014:234 JLINK_ReadMemU32(0xE0001038, 0x0001 Items, ...) -- CPU_ReadMem(4 bytes @ 0xE0001038) - Data: 00 02 00 00  returns 0x01 (0001ms, 0681ms total)
T3658 014:235 JLINK_ReadMemU32(0xE0001048, 0x0001 Items, ...) -- CPU_ReadMem(4 bytes @ 0xE0001048) - Data: 00 00 00 00  returns 0x01 (0000ms, 0681ms total)
T3658 014:235 JLINK_ReadMemU32(0xE0001058, 0x0001 Items, ...) -- CPU_ReadMem(4 bytes @ 0xE0001058) - Data: 00 00 00 00  returns 0x01 (0001ms, 0682ms total)
T3658 014:236 JLINK_ReadReg(R0)  returns 0x00000016 (0000ms, 0682ms total)
T3658 014:236 JLINK_ReadReg(R1)  returns 0x20000048 (0000ms, 0682ms total)
T3658 014:236 JLINK_ReadReg(R2)  returns 0x00000000 (0000ms, 0682ms total)
T3658 014:236 JLINK_ReadReg(R3)  returns 0xE000E000 (0000ms, 0682ms total)
T3658 014:236 JLINK_ReadReg(R4)  returns 0x00000000 (0000ms, 0682ms total)
T3658 014:236 JLINK_ReadReg(R5)  returns 0x20000170 (0000ms, 0682ms total)
T3658 014:236 JLINK_ReadReg(R6)  returns 0x3F42B333 (0000ms, 0682ms total)
T3658 014:236 JLINK_ReadReg(R7)  returns 0x00000000 (0000ms, 0682ms total)
T3658 014:236 JLINK_ReadReg(R8)  returns 0x00000000 (0000ms, 0682ms total)
T3658 014:236 JLINK_ReadReg(R9)  returns 0x20000160 (0000ms, 0682ms total)
T3658 014:236 JLINK_ReadReg(R10)  returns 0x08004D84 (0000ms, 0682ms total)
T3658 014:236 JLINK_ReadReg(R11)  returns 0x00000000 (0000ms, 0682ms total)
T3658 014:236 JLINK_ReadReg(R12)  returns 0x07E85666 (0001ms, 0683ms total)
T3658 014:237 JLINK_ReadReg(R13 (SP))  returns 0x200007C8 (0000ms, 0683ms total)
T3658 014:237 JLINK_ReadReg(R14)  returns 0x08000E75 (0000ms, 0683ms total)
T3658 014:237 JLINK_ReadReg(R15 (PC))  returns 0x08000C5E (0000ms, 0683ms total)
T3658 014:237 JLINK_ReadReg(XPSR)  returns 0x21000000 (0000ms, 0683ms total)
T3658 014:237 JLINK_ReadReg(MSP)  returns 0x200007C8 (0000ms, 0683ms total)
T3658 014:237 JLINK_ReadReg(PSP)  returns 0x20000800 (0000ms, 0683ms total)
T3658 014:237 JLINK_ReadReg(CFBP)  returns 0x00000000 (0000ms, 0683ms total)
T0CB8 014:237 JLINK_ReadMem (0x200007CC, 0x0004 Bytes, ...) -- CPU_ReadMem(64 bytes @ 0x200007C0) -- Updating C cache (64 bytes @ 0x200007C0) -- Read from C cache (4 bytes @ 0x200007CC) - Data: DD 01 00 08  returns 0x00 (0002ms, 0685ms total)
T0CB8 014:239 JLINK_ReadMem (0x200007C8, 0x0004 Bytes, ...) -- Read from C cache (4 bytes @ 0x200007C8) - Data: 00 00 00 60  returns 0x00 (0000ms, 0685ms total)
T0CB8 014:239 JLINK_ReadMem (0x00000000, 0x0004 Bytes, ...) -- CPU_ReadMem(4 bytes @ 0x00000004) -- CPU_ReadMem(64 bytes @ 0x08000000) -- Updating C cache (64 bytes @ 0x08000000) -- Read from C cache (4 bytes @ 0x08000000) - Data: D0 07 00 20  returns 0x00 (0002ms, 0687ms total)
T0CB8 014:241 JLINK_ReadMemU32(0xE0001004, 0x0001 Items, ...) -- CPU_ReadMem(4 bytes @ 0xE0001004) - Data: A8 EC 99 02  returns 0x01 (0001ms, 0688ms total)
T0CB8 014:242 JLINK_ReadMem (0x20000080, 0x000E Bytes, ...) -- CPU_ReadMem(64 bytes @ 0x20000080) -- Updating C cache (64 bytes @ 0x20000080) -- Read from C cache (14 bytes @ 0x20000080) - Data: 00 16 00 25 10 45 F2 05 FF DE FF FE FF FF  returns 0x00 (0001ms, 0689ms total)
T3658 015:723 JLINK_Step() -- CPU_ReadMem(64 bytes @ 0x08000C40) -- Updating C cache (64 bytes @ 0x08000C40) -- Read from C cache (2 bytes @ 0x08000C5E) -- CPU_ReadMem(64 bytes @ 0x08000E40) -- Updating C cache (64 bytes @ 0x08000E40) -- Read from C cache (4 bytes @ 0x08000E48) -- Simulated  returns 0x00 (0003ms, 0692ms total)
T3658 015:726 JLINK_ReadReg(R15 (PC))  returns 0x08000C60 (0000ms, 0692ms total)
T3658 015:726 JLINK_ReadReg(XPSR)  returns 0x21000000 (0000ms, 0692ms total)
T3658 015:726 JLINK_SetBPEx(Addr = 0x08000AA2, Type = 0xFFFFFFF2)  returns 0x00000008 (0000ms, 0692ms total)
T3658 015:726 JLINK_SetBPEx(Addr = 0x08000C5E, Type = 0xFFFFFFF2)  returns 0x00000009 (0000ms, 0692ms total)
T3658 015:726 JLINK_Go() -- CPU_WriteMem(4 bytes @ 0xE0002000) -- CPU_WriteMem(4 bytes @ 0xE0002000) -- CPU_ReadMem(4 bytes @ 0xE0001000) -- CPU_WriteMem(4 bytes @ 0xE0001004) (0003ms, 0695ms total)
T3658 015:831 JLINK_IsHalted()  returns FALSE (0000ms, 0695ms total)
T3658 015:932 JLINK_IsHalted()  returns FALSE (0000ms, 0695ms total)
T3658 016:033 JLINK_IsHalted()  returns FALSE (0000ms, 0695ms total)
T3658 016:134 JLINK_IsHalted()  returns FALSE (0000ms, 0695ms total)
T3658 016:236 JLINK_IsHalted()  returns TRUE (0002ms, 0697ms total)
T3658 016:238 JLINK_Halt()  returns 0x00 (0000ms, 0695ms total)
T3658 016:238 JLINK_IsHalted()  returns TRUE (0001ms, 0696ms total)
T3658 016:239 JLINK_IsHalted()  returns TRUE (0000ms, 0695ms total)
T3658 016:239 JLINK_IsHalted()  returns TRUE (0000ms, 0695ms total)
T3658 016:239 JLINK_ReadReg(R15 (PC))  returns 0x08000C5E (0000ms, 0695ms total)
T3658 016:239 JLINK_ReadReg(XPSR)  returns 0x21000000 (0000ms, 0695ms total)
T3658 016:239 JLINK_ClrBPEx(BPHandle = 0x00000008)  returns 0x00 (0000ms, 0695ms total)
T3658 016:239 JLINK_ClrBPEx(BPHandle = 0x00000009)  returns 0x00 (0000ms, 0695ms total)
T3658 016:239 JLINK_ReadMemU32(0xE000ED30, 0x0001 Items, ...) -- CPU_ReadMem(4 bytes @ 0xE000ED30) - Data: 03 00 00 00  returns 0x01 (0001ms, 0696ms total)
T3658 016:240 JLINK_ReadMemU32(0xE0001028, 0x0001 Items, ...) -- CPU_ReadMem(4 bytes @ 0xE0001028) - Data: 00 00 00 00  returns 0x01 (0000ms, 0696ms total)
T3658 016:240 JLINK_ReadMemU32(0xE0001038, 0x0001 Items, ...) -- CPU_ReadMem(4 bytes @ 0xE0001038) - Data: 00 02 00 00  returns 0x01 (0001ms, 0697ms total)
T3658 016:241 JLINK_ReadMemU32(0xE0001048, 0x0001 Items, ...) -- CPU_ReadMem(4 bytes @ 0xE0001048) - Data: 00 00 00 00  returns 0x01 (0000ms, 0697ms total)
T3658 016:241 JLINK_ReadMemU32(0xE0001058, 0x0001 Items, ...) -- CPU_ReadMem(4 bytes @ 0xE0001058) - Data: 00 00 00 00  returns 0x01 (0001ms, 0698ms total)
T3658 016:242 JLINK_ReadReg(R0)  returns 0x00000019 (0000ms, 0698ms total)
T3658 016:242 JLINK_ReadReg(R1)  returns 0x20000048 (0000ms, 0698ms total)
T3658 016:242 JLINK_ReadReg(R2)  returns 0x00000000 (0000ms, 0698ms total)
T3658 016:242 JLINK_ReadReg(R3)  returns 0xE000E000 (0000ms, 0698ms total)
T3658 016:242 JLINK_ReadReg(R4)  returns 0x00000000 (0000ms, 0698ms total)
T3658 016:242 JLINK_ReadReg(R5)  returns 0x20000170 (0000ms, 0698ms total)
T3658 016:242 JLINK_ReadReg(R6)  returns 0x3FC27E66 (0000ms, 0698ms total)
T3658 016:242 JLINK_ReadReg(R7)  returns 0x00000000 (0000ms, 0698ms total)
T3658 016:242 JLINK_ReadReg(R8)  returns 0x00000000 (0000ms, 0698ms total)
T3658 016:242 JLINK_ReadReg(R9)  returns 0x20000160 (0001ms, 0699ms total)
T3658 016:243 JLINK_ReadReg(R10)  returns 0x08004D84 (0000ms, 0699ms total)
T3658 016:243 JLINK_ReadReg(R11)  returns 0x00000000 (0000ms, 0699ms total)
T3658 016:243 JLINK_ReadReg(R12)  returns 0x07F84FCC (0000ms, 0699ms total)
T3658 016:243 JLINK_ReadReg(R13 (SP))  returns 0x200007C8 (0000ms, 0699ms total)
T3658 016:243 JLINK_ReadReg(R14)  returns 0x08000E75 (0000ms, 0699ms total)
T3658 016:243 JLINK_ReadReg(R15 (PC))  returns 0x08000C5E (0000ms, 0699ms total)
T3658 016:243 JLINK_ReadReg(XPSR)  returns 0x21000000 (0000ms, 0699ms total)
T3658 016:243 JLINK_ReadReg(MSP)  returns 0x200007C8 (0000ms, 0699ms total)
T3658 016:243 JLINK_ReadReg(PSP)  returns 0x20000800 (0000ms, 0699ms total)
T3658 016:243 JLINK_ReadReg(CFBP)  returns 0x00000000 (0000ms, 0699ms total)
T0CB8 016:244 JLINK_ReadMem (0x200007CC, 0x0004 Bytes, ...) -- CPU_ReadMem(64 bytes @ 0x200007C0) -- Updating C cache (64 bytes @ 0x200007C0) -- Read from C cache (4 bytes @ 0x200007CC) - Data: DD 01 00 08  returns 0x00 (0001ms, 0700ms total)
T0CB8 016:245 JLINK_ReadMem (0x200007C8, 0x0004 Bytes, ...) -- Read from C cache (4 bytes @ 0x200007C8) - Data: 00 00 00 C0  returns 0x00 (0000ms, 0700ms total)
T0CB8 016:245 JLINK_ReadMem (0x00000000, 0x0004 Bytes, ...) -- CPU_ReadMem(4 bytes @ 0x00000004) -- CPU_ReadMem(64 bytes @ 0x08000000) -- Updating C cache (64 bytes @ 0x08000000) -- Read from C cache (4 bytes @ 0x08000000) - Data: D0 07 00 20  returns 0x00 (0002ms, 0702ms total)
T0CB8 016:247 JLINK_ReadMemU32(0xE0001004, 0x0001 Items, ...) -- CPU_ReadMem(4 bytes @ 0xE0001004) - Data: 72 BA C1 04  returns 0x01 (0000ms, 0702ms total)
T0CB8 016:247 JLINK_ReadMem (0x20000080, 0x000E Bytes, ...) -- CPU_ReadMem(64 bytes @ 0x20000080) -- Updating C cache (64 bytes @ 0x20000080) -- Read from C cache (14 bytes @ 0x20000080) - Data: 00 19 00 32 10 51 F1 EC FF DE FF FE FF FE  returns 0x00 (0002ms, 0704ms total)
T3658 016:730 JLINK_Step() -- CPU_ReadMem(64 bytes @ 0x08000C40) -- Updating C cache (64 bytes @ 0x08000C40) -- Read from C cache (2 bytes @ 0x08000C5E) -- CPU_ReadMem(64 bytes @ 0x08000E40) -- Updating C cache (64 bytes @ 0x08000E40) -- Read from C cache (4 bytes @ 0x08000E48) -- Simulated  returns 0x00 (0003ms, 0707ms total)
T3658 016:733 JLINK_ReadReg(R15 (PC))  returns 0x08000C60 (0000ms, 0707ms total)
T3658 016:733 JLINK_ReadReg(XPSR)  returns 0x21000000 (0000ms, 0707ms total)
T3658 016:733 JLINK_SetBPEx(Addr = 0x08000AA2, Type = 0xFFFFFFF2)  returns 0x0000000A (0000ms, 0707ms total)
T3658 016:733 JLINK_SetBPEx(Addr = 0x08000C5E, Type = 0xFFFFFFF2)  returns 0x0000000B (0000ms, 0707ms total)
T3658 016:733 JLINK_Go() -- CPU_WriteMem(4 bytes @ 0xE0002000) -- CPU_WriteMem(4 bytes @ 0xE0002000) -- CPU_ReadMem(4 bytes @ 0xE0001000) -- CPU_WriteMem(4 bytes @ 0xE0001004) (0003ms, 0710ms total)
T3658 016:836 JLINK_IsHalted()  returns FALSE (0000ms, 0710ms total)
T3658 016:937 JLINK_IsHalted()  returns FALSE (0000ms, 0710ms total)
T3658 017:039 JLINK_IsHalted()  returns FALSE (0000ms, 0710ms total)
T3658 017:140 JLINK_IsHalted()  returns FALSE (0000ms, 0710ms total)
T3658 017:241 JLINK_IsHalted()  returns TRUE (0002ms, 0712ms total)
T3658 017:243 JLINK_Halt()  returns 0x00 (0000ms, 0710ms total)
T3658 017:243 JLINK_IsHalted()  returns TRUE (0000ms, 0710ms total)
T3658 017:243 JLINK_IsHalted()  returns TRUE (0000ms, 0710ms total)
T3658 017:244 JLINK_IsHalted()  returns TRUE (0000ms, 0710ms total)
T3658 017:244 JLINK_ReadReg(R15 (PC))  returns 0x08000C5E (0000ms, 0710ms total)
T3658 017:244 JLINK_ReadReg(XPSR)  returns 0x21000000 (0000ms, 0710ms total)
T3658 017:244 JLINK_ClrBPEx(BPHandle = 0x0000000A)  returns 0x00 (0000ms, 0710ms total)
T3658 017:244 JLINK_ClrBPEx(BPHandle = 0x0000000B)  returns 0x00 (0000ms, 0710ms total)
T3658 017:244 JLINK_ReadMemU32(0xE000ED30, 0x0001 Items, ...) -- CPU_ReadMem(4 bytes @ 0xE000ED30) - Data: 03 00 00 00  returns 0x01 (0001ms, 0711ms total)
T3658 017:245 JLINK_ReadMemU32(0xE0001028, 0x0001 Items, ...) -- CPU_ReadMem(4 bytes @ 0xE0001028) - Data: 00 00 00 00  returns 0x01 (0000ms, 0711ms total)
T3658 017:245 JLINK_ReadMemU32(0xE0001038, 0x0001 Items, ...) -- CPU_ReadMem(4 bytes @ 0xE0001038) - Data: 00 02 00 00  returns 0x01 (0001ms, 0712ms total)
T3658 017:246 JLINK_ReadMemU32(0xE0001048, 0x0001 Items, ...) -- CPU_ReadMem(4 bytes @ 0xE0001048) - Data: 00 00 00 00  returns 0x01 (0000ms, 0712ms total)
T3658 017:246 JLINK_ReadMemU32(0xE0001058, 0x0001 Items, ...) -- CPU_ReadMem(4 bytes @ 0xE0001058) - Data: 00 00 00 00  returns 0x01 (0001ms, 0713ms total)
T3658 017:247 JLINK_ReadReg(R0)  returns 0x0000000C (0000ms, 0713ms total)
T3658 017:247 JLINK_ReadReg(R1)  returns 0x20000048 (0000ms, 0713ms total)
T3658 017:247 JLINK_ReadReg(R2)  returns 0x00000000 (0000ms, 0713ms total)
T3658 017:247 JLINK_ReadReg(R3)  returns 0xE000E000 (0000ms, 0713ms total)
T3658 017:247 JLINK_ReadReg(R4)  returns 0x00000000 (0000ms, 0713ms total)
T3658 017:247 JLINK_ReadReg(R5)  returns 0x20000170 (0001ms, 0714ms total)
T3658 017:248 JLINK_ReadReg(R6)  returns 0x40120666 (0000ms, 0714ms total)
T3658 017:248 JLINK_ReadReg(R7)  returns 0x00000000 (0000ms, 0714ms total)
T3658 017:248 JLINK_ReadReg(R8)  returns 0x00000000 (0000ms, 0714ms total)
T3658 017:248 JLINK_ReadReg(R9)  returns 0x20000160 (0000ms, 0714ms total)
T3658 017:248 JLINK_ReadReg(R10)  returns 0x08004D84 (0000ms, 0714ms total)
T3658 017:248 JLINK_ReadReg(R11)  returns 0x00000000 (0000ms, 0714ms total)
T3658 017:248 JLINK_ReadReg(R12)  returns 0x080240CC (0000ms, 0714ms total)
T3658 017:248 JLINK_ReadReg(R13 (SP))  returns 0x200007C8 (0000ms, 0714ms total)
T3658 017:248 JLINK_ReadReg(R14)  returns 0x08000E75 (0000ms, 0714ms total)
T3658 017:248 JLINK_ReadReg(R15 (PC))  returns 0x08000C5E (0000ms, 0714ms total)
T3658 017:248 JLINK_ReadReg(XPSR)  returns 0x21000000 (0000ms, 0714ms total)
T3658 017:248 JLINK_ReadReg(MSP)  returns 0x200007C8 (0000ms, 0714ms total)
T3658 017:248 JLINK_ReadReg(PSP)  returns 0x20000800 (0000ms, 0714ms total)
T3658 017:248 JLINK_ReadReg(CFBP)  returns 0x00000000 (0000ms, 0714ms total)
T0CB8 017:249 JLINK_ReadMem (0x200007CC, 0x0004 Bytes, ...) -- CPU_ReadMem(64 bytes @ 0x200007C0) -- Updating C cache (64 bytes @ 0x200007C0) -- Read from C cache (4 bytes @ 0x200007CC) - Data: DD 01 00 08  returns 0x00 (0001ms, 0715ms total)
T0CB8 017:250 JLINK_ReadMem (0x200007C8, 0x0004 Bytes, ...) -- Read from C cache (4 bytes @ 0x200007C8) - Data: 00 00 00 C0  returns 0x00 (0000ms, 0715ms total)
T0CB8 017:250 JLINK_ReadMem (0x00000000, 0x0004 Bytes, ...) -- CPU_ReadMem(4 bytes @ 0x00000004) -- CPU_ReadMem(64 bytes @ 0x08000000) -- Updating C cache (64 bytes @ 0x08000000) -- Read from C cache (4 bytes @ 0x08000000) - Data: D0 07 00 20  returns 0x00 (0002ms, 0717ms total)
T0CB8 017:252 JLINK_ReadMemU32(0xE0001004, 0x0001 Items, ...) -- CPU_ReadMem(4 bytes @ 0xE0001004) - Data: 32 86 E9 06  returns 0x01 (0000ms, 0717ms total)
T0CB8 017:253 JLINK_ReadMem (0x20000080, 0x000E Bytes, ...) -- CPU_ReadMem(64 bytes @ 0x20000080) -- Updating C cache (64 bytes @ 0x20000080) -- Read from C cache (14 bytes @ 0x20000080) - Data: 00 0C 00 31 10 50 F1 E2 FF DD FF FF FF FE  returns 0x00 (0001ms, 0718ms total)
T3658 017:903 JLINK_Step() -- CPU_ReadMem(64 bytes @ 0x08000C40) -- Updating C cache (64 bytes @ 0x08000C40) -- Read from C cache (2 bytes @ 0x08000C5E) -- CPU_ReadMem(64 bytes @ 0x08000E40) -- Updating C cache (64 bytes @ 0x08000E40) -- Read from C cache (4 bytes @ 0x08000E48) -- Simulated  returns 0x00 (0002ms, 0720ms total)
T3658 017:906 JLINK_ReadReg(R15 (PC))  returns 0x08000C60 (0000ms, 0721ms total)
T3658 017:906 JLINK_ReadReg(XPSR)  returns 0x21000000 (0000ms, 0721ms total)
T3658 017:906 JLINK_SetBPEx(Addr = 0x08000AA2, Type = 0xFFFFFFF2)  returns 0x0000000C (0000ms, 0721ms total)
T3658 017:906 JLINK_SetBPEx(Addr = 0x08000C5E, Type = 0xFFFFFFF2)  returns 0x0000000D (0000ms, 0721ms total)
T3658 017:906 JLINK_Go() -- CPU_WriteMem(4 bytes @ 0xE0002000) -- CPU_WriteMem(4 bytes @ 0xE0002000) -- CPU_ReadMem(4 bytes @ 0xE0001000) -- CPU_WriteMem(4 bytes @ 0xE0001004) (0003ms, 0724ms total)
T3658 018:009 JLINK_IsHalted()  returns FALSE (0000ms, 0724ms total)
T3658 018:110 JLINK_IsHalted()  returns FALSE (0000ms, 0724ms total)
T3658 018:211 JLINK_IsHalted()  returns FALSE (0000ms, 0724ms total)
T3658 018:312 JLINK_IsHalted()  returns FALSE (0000ms, 0724ms total)
T3658 018:414 JLINK_IsHalted()  returns TRUE (0002ms, 0726ms total)
T3658 018:416 JLINK_Halt()  returns 0x00 (0000ms, 0724ms total)
T3658 018:416 JLINK_IsHalted()  returns TRUE (0000ms, 0724ms total)
T3658 018:416 JLINK_IsHalted()  returns TRUE (0000ms, 0724ms total)
T3658 018:416 JLINK_IsHalted()  returns TRUE (0000ms, 0724ms total)
T3658 018:416 JLINK_ReadReg(R15 (PC))  returns 0x08000C5E (0000ms, 0724ms total)
T3658 018:416 JLINK_ReadReg(XPSR)  returns 0x21000000 (0000ms, 0724ms total)
T3658 018:416 JLINK_ClrBPEx(BPHandle = 0x0000000C)  returns 0x00 (0001ms, 0725ms total)
T3658 018:417 JLINK_ClrBPEx(BPHandle = 0x0000000D)  returns 0x00 (0000ms, 0725ms total)
T3658 018:417 JLINK_ReadMemU32(0xE000ED30, 0x0001 Items, ...) -- CPU_ReadMem(4 bytes @ 0xE000ED30) - Data: 03 00 00 00  returns 0x01 (0000ms, 0725ms total)
T3658 018:417 JLINK_ReadMemU32(0xE0001028, 0x0001 Items, ...) -- CPU_ReadMem(4 bytes @ 0xE0001028) - Data: 00 00 00 00  returns 0x01 (0001ms, 0726ms total)
T3658 018:418 JLINK_ReadMemU32(0xE0001038, 0x0001 Items, ...) -- CPU_ReadMem(4 bytes @ 0xE0001038) - Data: 00 02 00 00  returns 0x01 (0000ms, 0726ms total)
T3658 018:418 JLINK_ReadMemU32(0xE0001048, 0x0001 Items, ...) -- CPU_ReadMem(4 bytes @ 0xE0001048) - Data: 00 00 00 00  returns 0x01 (0001ms, 0727ms total)
T3658 018:419 JLINK_ReadMemU32(0xE0001058, 0x0001 Items, ...) -- CPU_ReadMem(4 bytes @ 0xE0001058) - Data: 00 00 00 00  returns 0x01 (0000ms, 0727ms total)
T3658 018:419 JLINK_ReadReg(R0)  returns 0x00000001 (0000ms, 0727ms total)
T3658 018:419 JLINK_ReadReg(R1)  returns 0x20000048 (0001ms, 0728ms total)
T3658 018:420 JLINK_ReadReg(R2)  returns 0x00000000 (0000ms, 0728ms total)
T3658 018:420 JLINK_ReadReg(R3)  returns 0xE000E000 (0000ms, 0728ms total)
T3658 018:420 JLINK_ReadReg(R4)  returns 0x00000000 (0000ms, 0728ms total)
T3658 018:420 JLINK_ReadReg(R5)  returns 0x20000170 (0000ms, 0728ms total)
T3658 018:420 JLINK_ReadReg(R6)  returns 0x40431CCD (0000ms, 0728ms total)
T3658 018:420 JLINK_ReadReg(R7)  returns 0x00000000 (0000ms, 0728ms total)
T3658 018:420 JLINK_ReadReg(R8)  returns 0x00000000 (0000ms, 0728ms total)
T3658 018:420 JLINK_ReadReg(R9)  returns 0x20000160 (0000ms, 0728ms total)
T3658 018:420 JLINK_ReadReg(R10)  returns 0x08004D84 (0000ms, 0728ms total)
T3658 018:420 JLINK_ReadReg(R11)  returns 0x00000000 (0000ms, 0728ms total)
T3658 018:420 JLINK_ReadReg(R12)  returns 0x08086399 (0000ms, 0728ms total)
T3658 018:420 JLINK_ReadReg(R13 (SP))  returns 0x200007C8 (0000ms, 0728ms total)
T3658 018:420 JLINK_ReadReg(R14)  returns 0x08000E75 (0000ms, 0728ms total)
T3658 018:420 JLINK_ReadReg(R15 (PC))  returns 0x08000C5E (0000ms, 0728ms total)
T3658 018:420 JLINK_ReadReg(XPSR)  returns 0x21000000 (0000ms, 0728ms total)
T3658 018:420 JLINK_ReadReg(MSP)  returns 0x200007C8 (0000ms, 0728ms total)
T3658 018:420 JLINK_ReadReg(PSP)  returns 0x20000800 (0000ms, 0728ms total)
T3658 018:421 JLINK_ReadReg(CFBP)  returns 0x00000000 (0000ms, 0729ms total)
T0CB8 018:421 JLINK_ReadMem (0x200007CC, 0x0004 Bytes, ...) -- CPU_ReadMem(64 bytes @ 0x200007C0) -- Updating C cache (64 bytes @ 0x200007C0) -- Read from C cache (4 bytes @ 0x200007CC) - Data: DD 01 00 08  returns 0x00 (0001ms, 0730ms total)
T0CB8 018:422 JLINK_ReadMem (0x200007C8, 0x0004 Bytes, ...) -- Read from C cache (4 bytes @ 0x200007C8) - Data: 00 00 00 A0  returns 0x00 (0000ms, 0730ms total)
T0CB8 018:422 JLINK_ReadMem (0x00000000, 0x0004 Bytes, ...) -- CPU_ReadMem(4 bytes @ 0x00000004) -- CPU_ReadMem(64 bytes @ 0x08000000) -- Updating C cache (64 bytes @ 0x08000000) -- Read from C cache (4 bytes @ 0x08000000) - Data: D0 07 00 20  returns 0x00 (0001ms, 0731ms total)
T0CB8 018:424 JLINK_ReadMemU32(0xE0001004, 0x0001 Items, ...) -- CPU_ReadMem(4 bytes @ 0xE0001004) - Data: 6F 52 11 09  returns 0x01 (0000ms, 0731ms total)
T0CB8 018:424 JLINK_ReadMem (0x20000080, 0x000E Bytes, ...) -- CPU_ReadMem(64 bytes @ 0x20000080) -- Updating C cache (64 bytes @ 0x20000080) -- Read from C cache (14 bytes @ 0x20000080) - Data: 00 01 00 1F 10 4B F1 D4 FF DE FF FF FF FE  returns 0x00 (0001ms, 0732ms total)
T3658 019:004 JLINK_Step() -- CPU_ReadMem(64 bytes @ 0x08000C40) -- Updating C cache (64 bytes @ 0x08000C40) -- Read from C cache (2 bytes @ 0x08000C5E) -- CPU_ReadMem(64 bytes @ 0x08000E40) -- Updating C cache (64 bytes @ 0x08000E40) -- Read from C cache (4 bytes @ 0x08000E48) -- Simulated  returns 0x00 (0002ms, 0734ms total)
T3658 019:006 JLINK_ReadReg(R15 (PC))  returns 0x08000C60 (0001ms, 0735ms total)
T3658 019:007 JLINK_ReadReg(XPSR)  returns 0x21000000 (0000ms, 0735ms total)
T3658 019:007 JLINK_SetBPEx(Addr = 0x08000AA2, Type = 0xFFFFFFF2)  returns 0x0000000E (0000ms, 0735ms total)
T3658 019:007 JLINK_SetBPEx(Addr = 0x08000C5E, Type = 0xFFFFFFF2)  returns 0x0000000F (0000ms, 0735ms total)
T3658 019:007 JLINK_Go() -- CPU_WriteMem(4 bytes @ 0xE0002000) -- CPU_WriteMem(4 bytes @ 0xE0002000) -- CPU_ReadMem(4 bytes @ 0xE0001000) -- CPU_WriteMem(4 bytes @ 0xE0001004) (0003ms, 0738ms total)
T3658 019:110 JLINK_IsHalted()  returns FALSE (0000ms, 0738ms total)
T3658 019:212 JLINK_IsHalted()  returns FALSE (0000ms, 0738ms total)
T3658 019:313 JLINK_IsHalted()  returns FALSE (0000ms, 0738ms total)
T3658 019:414 JLINK_IsHalted()  returns FALSE (0000ms, 0738ms total)
T3658 019:515 JLINK_IsHalted()  returns TRUE (0001ms, 0739ms total)
T3658 019:516 JLINK_Halt()  returns 0x00 (0000ms, 0738ms total)
T3658 019:516 JLINK_IsHalted()  returns TRUE (0002ms, 0740ms total)
T3658 019:518 JLINK_IsHalted()  returns TRUE (0000ms, 0738ms total)
T3658 019:518 JLINK_IsHalted()  returns TRUE (0000ms, 0738ms total)
T3658 019:518 JLINK_ReadReg(R15 (PC))  returns 0x08000C5E (0000ms, 0738ms total)
T3658 019:518 JLINK_ReadReg(XPSR)  returns 0x21000000 (0000ms, 0738ms total)
T3658 019:518 JLINK_ClrBPEx(BPHandle = 0x0000000E)  returns 0x00 (0000ms, 0738ms total)
T3658 019:518 JLINK_ClrBPEx(BPHandle = 0x0000000F)  returns 0x00 (0000ms, 0738ms total)
T3658 019:518 JLINK_ReadMemU32(0xE000ED30, 0x0001 Items, ...) -- CPU_ReadMem(4 bytes @ 0xE000ED30) - Data: 03 00 00 00  returns 0x01 (0001ms, 0739ms total)
T3658 019:519 JLINK_ReadMemU32(0xE0001028, 0x0001 Items, ...) -- CPU_ReadMem(4 bytes @ 0xE0001028) - Data: 00 00 00 00  returns 0x01 (0000ms, 0739ms total)
T3658 019:519 JLINK_ReadMemU32(0xE0001038, 0x0001 Items, ...) -- CPU_ReadMem(4 bytes @ 0xE0001038) - Data: 00 02 00 00  returns 0x01 (0000ms, 0739ms total)
T3658 019:519 JLINK_ReadMemU32(0xE0001048, 0x0001 Items, ...) -- CPU_ReadMem(4 bytes @ 0xE0001048) - Data: 00 00 00 00  returns 0x01 (0000ms, 0739ms total)
T3658 019:519 JLINK_ReadMemU32(0xE0001058, 0x0001 Items, ...) -- CPU_ReadMem(4 bytes @ 0xE0001058) - Data: 00 00 00 00  returns 0x01 (0001ms, 0740ms total)
T3658 019:520 JLINK_ReadReg(R0)  returns 0x00000006 (0000ms, 0740ms total)
T3658 019:520 JLINK_ReadReg(R1)  returns 0x20000048 (0000ms, 0740ms total)
T3658 019:520 JLINK_ReadReg(R2)  returns 0x00000000 (0000ms, 0740ms total)
T3658 019:520 JLINK_ReadReg(R3)  returns 0xE000E000 (0000ms, 0740ms total)
T3658 019:520 JLINK_ReadReg(R4)  returns 0x00000000 (0000ms, 0740ms total)
T3658 019:520 JLINK_ReadReg(R5)  returns 0x20000170 (0000ms, 0740ms total)
T3658 019:520 JLINK_ReadReg(R6)  returns 0x4073E400 (0000ms, 0740ms total)
T3658 019:520 JLINK_ReadReg(R7)  returns 0x00000000 (0000ms, 0740ms total)
T3658 019:520 JLINK_ReadReg(R8)  returns 0x00000000 (0000ms, 0740ms total)
T3658 019:520 JLINK_ReadReg(R9)  returns 0x20000160 (0002ms, 0742ms total)
T3658 019:522 JLINK_ReadReg(R10)  returns 0x08004D84 (0000ms, 0742ms total)
T3658 019:522 JLINK_ReadReg(R11)  returns 0x00000000 (0000ms, 0742ms total)
T3658 019:522 JLINK_ReadReg(R12)  returns 0x080E7C80 (0000ms, 0742ms total)
T3658 019:522 JLINK_ReadReg(R13 (SP))  returns 0x200007C8 (0000ms, 0742ms total)
T3658 019:522 JLINK_ReadReg(R14)  returns 0x08000E75 (0000ms, 0742ms total)
T3658 019:522 JLINK_ReadReg(R15 (PC))  returns 0x08000C5E (0000ms, 0742ms total)
T3658 019:522 JLINK_ReadReg(XPSR)  returns 0x21000000 (0000ms, 0742ms total)
T3658 019:522 JLINK_ReadReg(MSP)  returns 0x200007C8 (0000ms, 0742ms total)
T3658 019:522 JLINK_ReadReg(PSP)  returns 0x20000800 (0000ms, 0742ms total)
T3658 019:522 JLINK_ReadReg(CFBP)  returns 0x00000000 (0000ms, 0742ms total)
T0CB8 019:522 JLINK_ReadMem (0x200007CC, 0x0004 Bytes, ...) -- CPU_ReadMem(64 bytes @ 0x200007C0) -- Updating C cache (64 bytes @ 0x200007C0) -- Read from C cache (4 bytes @ 0x200007CC) - Data: DD 01 00 08  returns 0x00 (0002ms, 0744ms total)
T0CB8 019:524 JLINK_ReadMem (0x200007C8, 0x0004 Bytes, ...) -- Read from C cache (4 bytes @ 0x200007C8) - Data: 00 00 00 00  returns 0x00 (0000ms, 0744ms total)
T0CB8 019:524 JLINK_ReadMem (0x00000000, 0x0004 Bytes, ...) -- CPU_ReadMem(4 bytes @ 0x00000004) -- CPU_ReadMem(64 bytes @ 0x08000000) -- Updating C cache (64 bytes @ 0x08000000) -- Read from C cache (4 bytes @ 0x08000000) - Data: D0 07 00 20  returns 0x00 (0002ms, 0746ms total)
T0CB8 019:526 JLINK_ReadMemU32(0xE0001004, 0x0001 Items, ...) -- CPU_ReadMem(4 bytes @ 0xE0001004) - Data: 91 1F 39 0B  returns 0x01 (0000ms, 0746ms total)
T0CB8 019:527 JLINK_ReadMem (0x20000080, 0x000E Bytes, ...) -- CPU_ReadMem(64 bytes @ 0x20000080) -- Updating C cache (64 bytes @ 0x20000080) -- Read from C cache (14 bytes @ 0x20000080) - Data: 00 06 00 1E 10 5B F1 D6 FF DD FF FF FF FE  returns 0x00 (0001ms, 0747ms total)
T3658 020:347 JLINK_Step() -- CPU_ReadMem(64 bytes @ 0x08000C40) -- Updating C cache (64 bytes @ 0x08000C40) -- Read from C cache (2 bytes @ 0x08000C5E) -- CPU_ReadMem(64 bytes @ 0x08000E40) -- Updating C cache (64 bytes @ 0x08000E40) -- Read from C cache (4 bytes @ 0x08000E48) -- Simulated  returns 0x00 (0003ms, 0750ms total)
T3658 020:350 JLINK_ReadReg(R15 (PC))  returns 0x08000C60 (0000ms, 0750ms total)
T3658 020:350 JLINK_ReadReg(XPSR)  returns 0x21000000 (0000ms, 0750ms total)
T3658 020:350 JLINK_SetBPEx(Addr = 0x08000AA2, Type = 0xFFFFFFF2)  returns 0x00000010 (0000ms, 0750ms total)
T3658 020:350 JLINK_SetBPEx(Addr = 0x08000C5E, Type = 0xFFFFFFF2)  returns 0x00000011 (0001ms, 0751ms total)
T3658 020:351 JLINK_Go() -- CPU_WriteMem(4 bytes @ 0xE0002000) -- CPU_WriteMem(4 bytes @ 0xE0002000) -- CPU_ReadMem(4 bytes @ 0xE0001000) -- CPU_WriteMem(4 bytes @ 0xE0001004) (0003ms, 0754ms total)
T3658 020:455 JLINK_IsHalted()  returns FALSE (0000ms, 0754ms total)
T3658 020:556 JLINK_IsHalted()  returns FALSE (0000ms, 0754ms total)
T3658 020:657 JLINK_IsHalted()  returns FALSE (0000ms, 0754ms total)
T3658 020:758 JLINK_IsHalted()  returns FALSE (0000ms, 0754ms total)
T3658 020:860 JLINK_IsHalted()  returns TRUE (0001ms, 0755ms total)
T3658 020:861 JLINK_Halt()  returns 0x00 (0000ms, 0754ms total)
T3658 020:862 JLINK_IsHalted()  returns TRUE (0000ms, 0755ms total)
T3658 020:862 JLINK_IsHalted()  returns TRUE (0000ms, 0755ms total)
T3658 020:862 JLINK_IsHalted()  returns TRUE (0000ms, 0755ms total)
T3658 020:862 JLINK_ReadReg(R15 (PC))  returns 0x08000C5E (0000ms, 0755ms total)
T3658 020:862 JLINK_ReadReg(XPSR)  returns 0x21000000 (0000ms, 0755ms total)
T3658 020:862 JLINK_ClrBPEx(BPHandle = 0x00000010)  returns 0x00 (0000ms, 0755ms total)
T3658 020:862 JLINK_ClrBPEx(BPHandle = 0x00000011)  returns 0x00 (0000ms, 0755ms total)
T3658 020:862 JLINK_ReadMemU32(0xE000ED30, 0x0001 Items, ...) -- CPU_ReadMem(4 bytes @ 0xE000ED30) - Data: 03 00 00 00  returns 0x01 (0001ms, 0756ms total)
T3658 020:863 JLINK_ReadMemU32(0xE0001028, 0x0001 Items, ...) -- CPU_ReadMem(4 bytes @ 0xE0001028) - Data: 00 00 00 00  returns 0x01 (0001ms, 0757ms total)
T3658 020:864 JLINK_ReadMemU32(0xE0001038, 0x0001 Items, ...) -- CPU_ReadMem(4 bytes @ 0xE0001038) - Data: 00 02 00 00  returns 0x01 (0001ms, 0758ms total)
T3658 020:865 JLINK_ReadMemU32(0xE0001048, 0x0001 Items, ...) -- CPU_ReadMem(4 bytes @ 0xE0001048) - Data: 00 00 00 00  returns 0x01 (0000ms, 0758ms total)
